/NM4/D X,/NM4/D Y,/NM2/D X,/NM2/D Y
0,0.003748437171570269,0,0.01186180925736815
4.955484050254667e-14,0.00374659066448033,4.955484050254667e-14,0.01185679781162774
5.977422747908802e-14,0.003746595803861569,5.977422747908802e-14,0.01185680134994898
8.021300143217073e-14,0.00374660627299593,8.021300143217073e-14,0.01185680837337685
1.006004900223953e-13,0.003746617010987619,1.006004900223953e-13,0.01185681530928939
1.260937010963837e-13,0.003746630867112646,1.260937010963837e-13,0.01185682388280954
1.770801232443606e-13,0.003746659975943223,1.770801232443606e-13,0.0118568407042391
2.309196709177988e-13,0.003746692788321525,2.309196709177988e-13,0.01185685801398192
2.817232081891502e-13,0.003746725821717835,2.817232081891502e-13,0.01185687394039448
3.355369480453097e-13,0.003746763140433062,3.355369480453097e-13,0.01185689039986347
3.927206313159297e-13,0.00374680564519967,3.927206313159297e-13,0.01185690745087917
4.542381985011126e-13,0.003746854992695522,4.542381985011126e-13,0.01185692531745596
5.212415245219092e-13,0.003746913522214123,5.212415245219092e-13,0.01185694425056015
5.943847447770432e-13,0.003746983853296984,5.943847447770432e-13,0.01185696433648847
6.744065303443469e-13,0.003747069547674503,6.744065303443469e-13,0.0118569856724837
7.621521482958422e-13,0.003747175453830139,7.621521482958422e-13,0.01185700837379058
8.585840072993006e-13,0.003747308129522059,8.585840072993006e-13,0.01185703257931952
9.64846618179877e-13,0.003747476427703797,9.64846618179877e-13,0.01185705847361877
1.082297792598943e-12,0.003747692113358412,1.082297792598943e-12,0.01185708630381156
1.212555945051607e-12,0.003747970432823636,1.212555945051607e-12,0.01185711640783696
1.357567052148497e-12,0.003748330306497229,1.357567052148497e-12,0.01185714925918259
1.519689014922676e-12,0.003748793321848229,1.519689014922676e-12,0.01185718553536662
1.701798967338339e-12,0.003749379637808471,1.701798967338339e-12,0.01185722622483716
1.907423435328391e-12,0.003750096505312986,1.907423435328391e-12,0.01185727279513159
2.140883559442894e-12,0.003750909801048522,2.140883559442894e-12,0.01185732745969923
2.407427025770317e-12,0.003751677442838269,2.407427025770317e-12,0.01185739360317951
2.71326819423289e-12,0.00375198674852328,2.71326819423289e-12,0.01185747559577365
3.065427692643108e-12,0.00375071499348085,3.065427692643108e-12,0.0118575767473651
3.471604110025977e-12,0.003745228922775983,3.471604110025977e-12,0.01185770007920669
3.939007257213976e-12,0.003730255844349436,3.939007257213976e-12,0.01185784795444854
4.471507599941174e-12,0.003696799236424147,4.471507599941174e-12,0.01185802073175959
5.068225979911509e-12,0.003632207470501341,5.068225979911509e-12,0.01185821697008502
5.72876813609302e-12,0.003521943701202535,5.72876813609302e-12,0.01185844566085826
6.45766985983541e-12,0.003352575703312116,6.45766985983541e-12,0.01185873831426504
7.177231565096641e-12,0.003142479591123376,7.177231565096641e-12,0.01185910096408039
7.926207597503965e-12,0.002891399474520164,7.926207597503965e-12,0.01185957647891095
8.72894742482191e-12,0.002608140128925981,8.72894742482191e-12,0.01186016290466324
9.514799333381348e-12,0.002344336906628889,9.514799333381348e-12,0.01186066343156477
1.030213530725031e-11,0.002123288375493809,1.030213530725031e-11,0.01186073664473222
1.089701479773242e-11,0.002003295366565576,1.089701479773242e-11,0.01186020878044004
1.137646547226595e-11,0.001943788846729112,1.137646547226595e-11,0.01185913859613983
1.181579462933793e-11,0.001919784094145036,1.181579462933793e-11,0.01185735648786861
1.22411834078497e-11,0.001928119616719221,1.22411834078497e-11,0.01185465954413593
1.26693707216752e-11,0.001965534593884761,1.26693707216752e-11,0.01185062716623504
1.314886783801738e-11,0.002036300419662213,1.314886783801738e-11,0.01184404287370372
1.362821671892624e-11,0.002136444272215405,1.362821671892624e-11,0.01183477420200578
1.417982575752531e-11,0.002275723570312094,1.417982575752531e-11,0.01181981638877396
1.477929259449679e-11,0.002436258449448825,1.477929259449679e-11,0.011796969326983
1.541337618760754e-11,0.002593535010245507,1.541337618760754e-11,0.01176343195933463
1.608878503357147e-11,0.002719668550752963,1.608878503357147e-11,0.01171434841781622
1.670908339481667e-11,0.002786963753386563,1.670908339481667e-11,0.01165459454885082
1.719724217449353e-11,0.002811865723329472,1.719724217449353e-11,0.01159609024923337
1.761439493725236e-11,0.00281850116532014,1.761439493725236e-11,0.01153690201066768
1.803241830416286e-11,0.002817252437324964,1.803241830416286e-11,0.0114682170879711
1.848237608918636e-11,0.002814501593311501,1.848237608918636e-11,0.01138249028147948
1.892726943270877e-11,0.002817022754022512,1.892726943270877e-11,0.0112851195468932
1.936838279843168e-11,0.002831744823160608,1.936838279843168e-11,0.01117559202405699
1.979941734060542e-11,0.002862436498007617,1.979941734060542e-11,0.01105599091934895
2.022595988780864e-11,0.002909416357131701,2.022595988780864e-11,0.01092612962900114
2.064332136136913e-11,0.002970770561333006,2.064332136136913e-11,0.01078886476927298
2.105966917879475e-11,0.003055894470365583,2.105966917879475e-11,0.01064360436324274
2.147706071048101e-11,0.003187696147525966,2.147706071048101e-11,0.01049211155448365
2.189704288846919e-11,0.003417272305586137,2.189704288846919e-11,0.01033635082988319
2.23365475532231e-11,0.003840666527527524,2.23365475532231e-11,0.01017416454916486
2.279412589601628e-11,0.004578599142882999,2.279412589601628e-11,0.01001167701146641
2.325453006052611e-11,0.005696461026705022,2.325453006052611e-11,0.009861503588872032
2.371026623374196e-11,0.007176955777594548,2.371026623374196e-11,0.009733874973750582
2.411600286084486e-11,0.008768112451567805,2.411600286084486e-11,0.009644453785520639
2.45069267657025e-11,0.01049301643728101,2.45069267657025e-11,0.009584143074070775
2.493939628234299e-11,0.01255501142130303,2.493939628234299e-11,0.009551143662525984
2.539461580213264e-11,0.01481775065757524,2.539461580213264e-11,0.009559818179805654
2.580127569034093e-11,0.01683715360187813,2.580127569034093e-11,0.009609174030806057
2.617530348445664e-11,0.01859831662817694,2.617530348445664e-11,0.009689458374723564
2.652334471988278e-11,0.02004116670276781,2.652334471988278e-11,0.009793241478454938
2.684312331865657e-11,0.02109742102593545,2.684312331865657e-11,0.009912880935065748
2.714160317430444e-11,0.02185028307300366,2.714160317430444e-11,0.0100465266892863
2.744945746296852e-11,0.02251408896817552,2.744945746296852e-11,0.01020317575638214
2.787608753136831e-11,0.02342754690379559,2.787608753136831e-11,0.01044427831189687
2.832287890043932e-11,0.02451232110342898,2.832287890043932e-11,0.0107207168784709
2.868398569884469e-11,0.02543789978870922,2.868398569884469e-11,0.01095857637581642
2.905422127017206e-11,0.02640375767257227,2.905422127017206e-11,0.01121158557284493
2.948415439858018e-11,0.02748410675420535,2.948415439858018e-11,0.01151314444337031
2.996847920735207e-11,0.0286254181181893,2.996847920735207e-11,0.01186630363407088
3.05089438302284e-11,0.02975792781102155,3.05089438302284e-11,0.01228787364092032
3.110829861002952e-11,0.03078093905245995,3.110829861002952e-11,0.01279638775088326
3.169183430802708e-11,0.0315292787916755,3.169183430802708e-11,0.01335750025624767
3.230165599746874e-11,0.0320653683668375,3.230165599746874e-11,0.01403645685357553
3.284216873345035e-11,0.0323637975518176,3.284216873345035e-11,0.01472999994631799
3.328147747069169e-11,0.03252281108225119,3.328147747069169e-11,0.01536981737766489
3.365825670624416e-11,0.03262400598944024,3.365825670624416e-11,0.01597901032716832
3.405301870525146e-11,0.03271895632177462,3.405301870525146e-11,0.01667794355724254
3.458368516216716e-11,0.03285817882971871,3.458368516216716e-11,0.01773752500206649
3.518385884366178e-11,0.03304014660444798,3.518385884366178e-11,0.01913421645958627
3.571243701666172e-11,0.03322035492492716,3.571243701666172e-11,0.02056253521309704
3.620931674644319e-11,0.03338695728112359,3.620931674644319e-11,0.02210338198076294
3.673433539345583e-11,0.0335207347479799,3.673433539345583e-11,0.02395755233702894
3.72929736738983e-11,0.03354919570651201,3.72929736738983e-11,0.02618991441222348
3.785048293896071e-11,0.03333676567227126,3.785048293896071e-11,0.02866746284270636
3.837098029318308e-11,0.03275825656517328,3.837098029318308e-11,0.03118164039885021
3.884453182568624e-11,0.03182322214440883,3.884453182568624e-11,0.03361601610022108
3.931070440649472e-11,0.03057038242981499,3.931070440649472e-11,0.03612841352859632
3.976368506471117e-11,0.02915221969161673,3.976368506471117e-11,0.0386520945210303
4.023430161513016e-11,0.02757977558858789,4.023430161513016e-11,0.04132763777182107
4.068783698815551e-11,0.02604550350742474,4.068783698815551e-11,0.04390804115033434
4.113513614569744e-11,0.02455580779472555,4.113513614569744e-11,0.04637954751437344
4.157226156261857e-11,0.02314511315020626,4.157226156261857e-11,0.04863838991039299
4.197891547464337e-11,0.02191029337285062,4.197891547464337e-11,0.05057965353281027
4.238069853105498e-11,0.02082323257957211,4.238069853105498e-11,0.05244042948691702
4.274648288969934e-11,0.01997908854086931,4.274648288969934e-11,0.05418882173106057
4.308033295147031e-11,0.01923950375500371,4.308033295147031e-11,0.05586852759087743
4.344213831619988e-11,0.01828547831114781,4.344213831619988e-11,0.05778290619529101
4.38990704539786e-11,0.01679071301552312,4.38990704539786e-11,0.06031750277378702
4.43550721168366e-11,0.01505014842071748,4.43550721168366e-11,0.06296171288198006
4.478072290080753e-11,0.01329195780656428,4.478072290080753e-11,0.06547907252503068
4.52401084108044e-11,0.01133469195392619,4.52401084108044e-11,0.06821639500131176
4.574616240792035e-11,0.009157820576188153,4.574616240792035e-11,0.07121160479291935
4.628450039544607e-11,0.006862432462250398,4.628450039544607e-11,0.07433948406435184
4.688153951245437e-11,0.00441672476682241,4.688153951245437e-11,0.07767750369966318
4.75106561128439e-11,0.002009838151294773,4.75106561128439e-11,0.08099056244836816
4.822473739464301e-11,-0.0004578979266967576,4.822473739464301e-11,0.0844285365788762
4.903423690700852e-11,-0.002839880020529306,4.903423690700852e-11,0.08778008368775488
4.978884620897619e-11,-0.004636258870305891,4.978884620897619e-11,0.09020938744866032
5.044442148514603e-11,-0.005848326731363896,5.044442148514603e-11,0.0916214076084587
5.101679491384568e-11,-0.006632096602260065,5.101679491384568e-11,0.09221393784289111
5.155249556400723e-11,-0.007123982186092547,5.155249556400723e-11,0.09215404701241224
5.209735656484936e-11,-0.007385156590687973,5.209735656484936e-11,0.0914907864930305
5.260068367444307e-11,-0.007420840585373616,5.260068367444307e-11,0.09035371194629271
5.30378101725362e-11,-0.007314560627390517,5.30378101725362e-11,0.08896599687413789
5.349626923259482e-11,-0.007053604594288526,5.349626923259482e-11,0.08711967769137868
5.404039440260715e-11,-0.006590905719606717,5.404039440260715e-11,0.08443328517523405
5.458412301634714e-11,-0.006015157234212117,5.458412301634714e-11,0.08117757726693765
5.507593127230521e-11,-0.005492132216549352,5.507593127230521e-11,0.07774755532783975
5.554879123817078e-11,-0.005038960921904385,5.554879123817078e-11,0.07407487304980689
5.603772283581467e-11,-0.004633108119309655,5.603772283581467e-11,0.06991773523370426
5.650301043304243e-11,-0.004280937652972303,5.650301043304243e-11,0.06564705791848384
5.695356331470959e-11,-0.003932746733140288,5.695356331470959e-11,0.06126888021622241
5.739471554621284e-11,-0.003519846397499917,5.739471554621284e-11,0.05677403703881273
5.781891915447755e-11,-0.002967434728861735,5.781891915447755e-11,0.05230945538942183
5.824215607477008e-11,-0.002182742566072505,5.824215607477008e-11,0.04774943570283002
5.868849336057017e-11,-0.001057156491623875,5.868849336057017e-11,0.04289559705531388
5.91801702779056e-11,0.0005212181042707244,5.91801702779056e-11,0.03757322904650614
5.963967351665101e-11,0.002235096165266785,5.963967351665101e-11,0.03274147448290484
6.012283456476179e-11,0.004081252940409768,6.012283456476179e-11,0.02792657073152913
6.055117467352348e-11,0.005316752085121307,6.055117467352348e-11,0.02378659185607069
6.087952938907567e-11,0.005845474593093286,6.087952938907567e-11,0.02053979008956939
6.117826480293766e-11,0.006396333995161495,6.117826480293766e-11,0.01752247214957774
6.158749316806073e-11,0.00741344563703511,6.158749316806073e-11,0.01339059860379602
6.192984538706816e-11,0.008437415673709727,6.192984538706816e-11,0.009941063278516099
6.227922230761033e-11,0.009586209550697899,6.227922230761033e-11,0.006462800454838723
6.276661795621015e-11,0.01142290930755415,6.276661795621015e-11,0.001757273161547272
6.333649181023095e-11,0.01393149204829845,6.333649181023095e-11,-0.003499243976364419
6.378935609238204e-11,0.01617670542042998,6.378935609238204e-11,-0.007467724693949039
6.425004412790165e-11,0.01860478370426393,6.425004412790165e-11,-0.01127114076250317
6.479014498281714e-11,0.02156155745787187,6.479014498281714e-11,-0.01538839572818324
6.5399319712965e-11,0.0249454521957523,6.5399319712965e-11,-0.01955422950303717
6.607449619674063e-11,0.02858623678711796,6.607449619674063e-11,-0.02350449013705722
6.681656847331145e-11,0.03231670602501724,6.681656847331145e-11,-0.02706311357441862
6.761828044207457e-11,0.03592517645764379,6.761828044207457e-11,-0.02998995459010007
6.835381050882864e-11,0.03883247435417849,6.835381050882864e-11,-0.03183995049766275
6.896632522002932e-11,0.04093274730093538,6.896632522002932e-11,-0.03270924173060973
6.944648183572788e-11,0.04234599376956964,6.944648183572788e-11,-0.03290847975699422
6.988651503969769e-11,0.04342433576916177,6.988651503969769e-11,-0.03274058607432843
7.043247899104246e-11,0.04444733905851775,7.043247899104246e-11,-0.03216593374406335
7.098589119418148e-11,0.04503434655523063,7.098589119418148e-11,-0.03128142457322226
7.152956474560832e-11,0.04507784672742507,7.152956474560832e-11,-0.0301802209005603
7.205154994153953e-11,0.04456079757808729,7.205154994153953e-11,-0.0289269812541077
7.259095747306283e-11,0.04351496370401604,7.259095747306283e-11,-0.02739067575217731
7.327063333403397e-11,0.04147962575809805,7.327063333403397e-11,-0.02509730152561822
7.390720755025708e-11,0.03887420355589782,7.390720755025708e-11,-0.02260267322899254
7.446132109256669e-11,0.03606770261810961,7.446132109256669e-11,-0.02023716563989178
7.497083898931365e-11,0.03311943418446615,7.497083898931365e-11,-0.01805596839566768
7.547942560553562e-11,0.0299989299215761,7.547942560553562e-11,-0.01588851562907009
7.599336709089727e-11,0.02687996126440063,7.599336709089727e-11,-0.01353288687238363
7.650128705542632e-11,0.02405222033249807,7.650128705542632e-11,-0.01096154875937062
7.702748283550905e-11,0.02163070331625531,7.702748283550905e-11,-0.008183107337270304
7.74248595274082e-11,0.02009026919899184,7.74248595274082e-11,-0.006016452301147498
7.780418321408344e-11,0.01858496211193375,7.780418321408344e-11,-0.003927201126563419
7.81970429667001e-11,0.01697919244721899,7.81970429667001e-11,-0.001715596017747777
7.856543524787907e-11,0.01546161495565233,7.856543524787907e-11,0.000377037017277624
7.895610632964002e-11,0.0138421266541037,7.895610632964002e-11,0.002602431608816007
7.938948978637389e-11,0.01202817445414207,7.938948978637389e-11,0.005068158691340332
7.985941639888843e-11,0.01007908844380858,7.985941639888843e-11,0.007711090729439766
8.032946402884186e-11,0.008176205349455599,8.032946402884186e-11,0.01029641397039734
8.084387265700577e-11,0.006178195922500752,8.084387265700577e-11,0.01304241103334324
8.142897379961769e-11,0.004035741111086757,8.142897379961769e-11,0.01612170427492507
8.208767671397923e-11,0.001800970789679414,8.208767671397923e-11,0.01965775273016068
8.282711669696166e-11,-0.0004667692938747784,8.282711669696166e-11,0.02377255447591141
8.345052625180807e-11,-0.002192882179798369,8.345052625180807e-11,0.02735265707625732
8.409262796707491e-11,-0.003803165710965808,8.409262796707491e-11,0.03105708652243119
8.479039688625469e-11,-0.005371488742813992,8.479039688625469e-11,0.03503893551206286
8.550317191763954e-11,-0.006788754994834383,8.550317191763954e-11,0.03894109339159041
8.627288804399076e-11,-0.008103249215485123,8.627288804399076e-11,0.04283843478878865
8.699539542155852e-11,-0.009118281753948534,8.699539542155852e-11,0.04614607073345693
8.76538385249456e-11,-0.009826590545831146,8.76538385249456e-11,0.04889601775168489
8.823344285175457e-11,-0.01024194710811063,8.823344285175457e-11,0.05109439821614327
8.870169741812402e-11,-0.01041711062264359,8.870169741812402e-11,0.05267031735105236
8.911472166783567e-11,-0.01045783853123878,8.911472166783567e-11,0.05390688117092704
8.959748845322357e-11,-0.01039396997769511,8.959748845322357e-11,0.05507281560370006
9.018751146870859e-11,-0.01019027637160257,9.018751146870859e-11,0.05598188616270284
9.073049700609551e-11,-0.009896765096399578,9.073049700609551e-11,0.05616010270832192
9.123754649928233e-11,-0.009534448045986459,9.123754649928233e-11,0.05580206268101624
9.174875582974316e-11,-0.009064803821862753,9.174875582974316e-11,0.05508902147831938
9.228574170246694e-11,-0.008428818513839129,9.228574170246694e-11,0.05419732802795531
9.280976742053649e-11,-0.007626671022849629,9.280976742053649e-11,0.05364453173900578
9.327571879460421e-11,-0.006704468515559216,9.327571879460421e-11,0.05358111828632744
9.367527384513581e-11,-0.005720882280185905,9.367527384513581e-11,0.05309098809984106
9.41793657019648e-11,-0.00427962193958512,9.41793657019648e-11,0.05183881528902277
9.464382376164047e-11,-0.003025638202412095,9.464382376164047e-11,0.05040577226952524
9.505429315691017e-11,-0.001977742561287668,9.505429315691017e-11,0.04905726726459089
9.545773454385654e-11,-0.0007203270971058856,9.545773454385654e-11,0.04755888981725271
9.596175006372875e-11,0.001112993846932097,9.596175006372875e-11,0.04527649534679454
9.641362891493322e-11,0.002892810926881029,9.641362891493322e-11,0.04279711454215402
9.680937375725329e-11,0.00446382781836159,9.680937375725329e-11,0.04035866073436799
9.717328788631445e-11,0.005884522917077178,9.717328788631445e-11,0.03794230512383315
9.755810774272915e-11,0.007412454166520498,9.755810774272915e-11,0.03522988652984958
9.812868435025966e-11,0.009796071955997252,9.812868435025966e-11,0.03097395400362711
9.85946509344248e-11,0.0118670480629891,9.85946509344248e-11,0.02732699689499989
9.900859960892617e-11,0.01374672133840976,9.900859960892617e-11,0.02398934505832027
9.947672578424724e-11,0.01587151083121304,9.947672578424724e-11,0.02014389751200627
1.000177189144741e-10,0.01828836174659465,1.000177189144741e-10,0.01564913279261312
1.006252470786852e-10,0.02089128137135781,1.006252470786852e-10,0.01059900136882972
1.013009393604035e-10,0.02354751324514151,1.013009393604035e-10,0.00509589786139674
1.020466074702214e-10,0.0261639711607839,1.020466074702214e-10,-0.0007195749906532675
1.028813881919079e-10,0.02867824466219551,1.028813881919079e-10,-0.006689134269241452
1.036453405934695e-10,0.03065657825343351,1.036453405934695e-10,-0.01141847483038292
1.042853180802651e-10,0.03211953550233319,1.042853180802651e-10,-0.01474948135010615
1.048269683203988e-10,0.03324527549695877,1.048269683203988e-10,-0.01711221404851033
1.052806587566788e-10,0.03411363047728912,1.052806587566788e-10,-0.01870554894341288
1.057569897454394e-10,0.03495945495961125,1.057569897454394e-10,-0.01998538827477321
1.0644725591234e-10,0.03603769617787803,1.0644725591234e-10,-0.02097729821466827
1.07097546194554e-10,0.03682128049345687,1.07097546194554e-10,-0.0208687202296036
1.076680696218057e-10,0.03724966199598369,1.076680696218057e-10,-0.02005076053946599
1.082536144175835e-10,0.03734680889948093,1.082536144175835e-10,-0.01856460158084296
1.088925478705557e-10,0.03696680760815485,1.088925478705557e-10,-0.01621557357955726
1.095424852330201e-10,0.03593632445578936,1.095424852330201e-10,-0.01308839960440041
1.101250037783148e-10,0.03448396560451994,1.101250037783148e-10,-0.009701850155908187
